 ****** PrimeSim HSPICE -- S-2021.09 win64 (Aug 25 2021 7230000) ******
  Copyright (c) 1986 - 2025 by Synopsys, Inc. All Rights Reserved.
  This software and the associated documentation are proprietary
  to Synopsys, Inc. This software may only be used in accordance
  with the terms and conditions of a written license agreement with
  Synopsys, Inc. All other use, reproduction, or distribution of
  this software is strictly prohibited.
  Input File: cmos_inverter.sp                                                  
  Command line options: C:\synopsys\Hspice_S-2021.09\WIN64\hspice.com -i cmos_inverter.sp -o G:\vlsiekhtiari\cmos_inverter.lis
  Start time: Thu Jan 30 23:08:05 2025
  lic:  
  lic: FLEXlm: SDK_12.9.6 
  lic: USER:   -                    HOSTNAME: alireza 
  lic: HOSTID: 3c7c3f26db32         PID:      8716 
  lic: Using FLEXlm license file: 
  lic: C:\synopsys\synopsys_lic.dat 
  lic: Checkout 1 hspice 
  lic: License/Maintenance for hspice will expire on 30-dec-2030/2030.12 
  lic: 1(in_use)/99(total) FLOATING license(s) on SERVER C:\synopsys\synopsys_li
 c.dat 
  lic:   
1****** PrimeSim HSPICE -- S-2021.09 win64 (Aug 25 2021 7230000) ******
 ******  
 invertercmos_barayeemtiazi

 ****** mos   model parameters tnom=  25.000 temp=  25.000 ******
 ***************************************************************************
 ***        model parameters  model name:   0:cmosn            model type:nmos   ***
 ***************************************************************************

   *** general parameters ***
    deriv=   0.           

   ***  level 49  model parameters  ***

       hspver=    2006.03               level=         49         
      version=        3.1            paramchk=          0         
       apwarn=          1                lite=          0         
       vgslim=          0             binUnit=          1         
       capMod=          0               xpart=          1         
       mobMod=          1              nqsMod=          0         
       stiMod=          0                 elm=          5         
     sfvtflag=          0                 tox=    7.7e-09 meter   
           xj=      1e-07 meter       binflag=          0         
         lmin=          0 meter          lmax=          0 meter   
         wmin=          0 meter          wmax=          0 meter   
         lref=          0 meter          wref=          0 meter   
         lint=          0 meter          wint=          0 meter   
        lmult=          1               wmult=          1         
           ll=          0                 lln=          1         
           lw=          0                 lwn=          1         
          lwl=          0                  wl=          0         
          wln=          1                  ww=          0         
          wwn=          1                 wwl=          0         
          dwg=          0 m/V             dwb=          0 m/V^1/2 
           xl=          0                  xw=          0         
           a0=   0.909879                 ags=   0.212018 V^-1    
           b0=1.68361e-06 meter            b1=      5e-06 meter   
         keta=-0.000401189 V^-1           voff=      -0.08 V       
        ngate=          0 cm^-3           vbx=          0 V       
          vbm=         -3 V                xt=   1.55e-07 meter   
         vth0=   0.504826 V               nch= 2.3579e+17 cm^-3   
         nsub=      6e+16 cm^-3           nlx=1.43087e-07 meter   
       gamma1=          0 V^-1/2       gamma2=          0 V^-1/2  
           k1=    0.55428 V^1/2            k2=  0.0155863         
           k3=    2.34756                 k3b=   -3.31429 V^-1    
           w0=4.14589e-05 meter          dvt0= -0.0150839         
         dvt1= 0.00151022                dvt2=   0.170688 V^-1    
        dvt0w=          0 meter^-1      dvt1w=          0 meter^-1
        dvt2w=          0 V^-1           dsub=       0.56         
         eta0=       0.08                etab=      -0.07 V^-1    
           u0=    415.857 cm^2/V/sec         ua=5.05732e-11 m/V     
           ub=1.49679e-18 (m/V)^2          uc=2.98627e-11 V^-1    
         vsat=     123703 m/sec            a1=          0 v^-1    
           a2=          1               delta=       0.01 V       
         rdsw=    1156.97 ohm-um         prwg=-0.00846856 V^-1    
         prwb=-0.00767867 V^-1/2           wr=          1         
         pclm=        1.3             pdiblc1=       0.39         
      pdiblc2=     0.0086             pdiblcb=          0 V^-1    
       pscbe1=   4.24e+08 V/m          pscbe2=      1e-05 V/m     
        drout=       0.56                pvag=          0         
      nfactor=          1                cdsc=    0.00024 f/m^2   
        cdscb=          0 f/V/m^2       cdscd=          0 f/V/m^2 
          cit=          0 f/m^2        alpha0=          0 m/V     
        beta0=         30 V               dlc=          0 meter   
          dwc=          0 meter           clc=      1e-07 meter   
          cle=        0.6                cgso=2.69075e-10 f/m     
         cgdo=2.69075e-10 f/m            cgbo=          0 f/m     
         cgsl=          0 f/m            cgdl=          0 f/m     
       ckappa=        0.6                  cf=8.72587e-11 f/m     
      vfbflag=          0               vfbcv=         -1 V       
         tnom=     300.15 K               kt1=      -0.11 V       
         kt1l=          0                 kt2=      0.022         
          ute=       -1.5                 ua1=   4.31e-09 m/V     
          ub1=  -7.61e-18 (m/V)^2         uc1=   -5.6e-11 m/V^2   
           at=      33000 m/s             prt=          0         
          using Berkeley noise model       noiMod=          1         
         noia=      1e+20                noib=      50000         
         noic=   -1.4e-12                  em=    4.1e+07         
           ef=          1                  af=          1         
           kf=          0              gdsnoi=-1.23457e-29         
          using Hspice diodes            using ACM 
          acm=         3                 hdif=     5e-07 meter    
         ldif=         0 meter             js=         0 amp/m^2  
          jsw=         0 amp/m            xti=         0          
            n=         1                   cj=0.000101851 f/m^2    
           mj=       0.5                   pb=       0.8 V        
         cjsw=         0 f/m             mjsw=      0.33          
          php=       0.8 V               pbsw (not used)           
       cjgate=         0 f/m            cjswg (not used)           
        mjswg (not used)                 pbswg (not used)           
 ***************************************************************************
 ***        model parameters  model name:   0:cmosp            model type:pmos   ***
 ***************************************************************************

   *** general parameters ***
    deriv=   0.           

   ***  level 49  model parameters  ***

       hspver=    2006.03               level=         49         
      version=        3.1            paramchk=          0         
       apwarn=          1                lite=          0         
       vgslim=          0             binUnit=          1         
       capMod=          0               xpart=          1         
       mobMod=          1              nqsMod=          0         
       stiMod=          0                 elm=          5         
     sfvtflag=          0                 tox=    7.7e-09 meter   
           xj=      1e-07 meter       binflag=          0         
         lmin=          0 meter          lmax=          0 meter   
         wmin=          0 meter          wmax=          0 meter   
         lref=          0 meter          wref=          0 meter   
         lint=          0 meter          wint=          0 meter   
        lmult=          1               wmult=          1         
           ll=          0                 lln=          1         
           lw=          0                 lwn=          1         
          lwl=          0                  wl=          0         
          wln=          1                  ww=          0         
          wwn=          1                 wwl=          0         
          dwg=          0 m/V             dwb=          0 m/V^1/2 
           xl=          0                  xw=          0         
           a0=   0.987125                 ags=   0.354197 V^-1    
           b0=3.18809e-06 meter            b1=      5e-06 meter   
         keta= -0.0169877 V^-1           voff=      -0.08 V       
        ngate=          0 cm^-3           vbx=          0 V       
          vbm=         -3 V                xt=   1.55e-07 meter   
         vth0=  -0.689799 V               nch=   8.52e+16 cm^-3   
         nsub=      6e+16 cm^-3           nlx=3.09622e-07 meter   
       gamma1=          0 V^-1/2       gamma2=          0 V^-1/2  
           k1=   0.413429 V^1/2            k2=-0.00534299         
           k3=    24.8362                 k3b=   -1.43908 V^-1    
           w0=2.46769e-06 meter          dvt0=    1.32098         
         dvt1=   0.469596                dvt2=-0.000879076 V^-1    
        dvt0w=          0 meter^-1      dvt1w=          0 meter^-1
        dvt2w=          0 V^-1           dsub=       0.56         
         eta0=       0.08                etab=      -0.07 V^-1    
           u0=    150.628 cm^2/V/sec         ua=2.01694e-10 m/V     
           ub=1.71492e-18 (m/V)^2          uc=-1.36948e-11 V^-1    
         vsat=    95592.2 m/sec            a1=          0 v^-1    
           a2=          1               delta=       0.01 V       
         rdsw=    2443.01 ohm-um         prwg=  0.0260616 V^-1    
         prwb=   0.141561 V^-1/2           wr=          1         
         pclm=        1.3             pdiblc1=       0.39         
      pdiblc2=     0.0086             pdiblcb=          0 V^-1    
       pscbe1=   4.24e+08 V/m          pscbe2=      1e-05 V/m     
        drout=       0.56                pvag=          0         
      nfactor=          1                cdsc=    0.00024 f/m^2   
        cdscb=          0 f/V/m^2       cdscd=          0 f/V/m^2 
          cit=          0 f/m^2        alpha0=          0 m/V     
        beta0=         30 V               dlc=          0 meter   
          dwc=          0 meter           clc=      1e-07 meter   
          cle=        0.6                cgso=2.69075e-10 f/m     
         cgdo=2.69075e-10 f/m            cgbo=          0 f/m     
         cgsl=          0 f/m            cgdl=          0 f/m     
       ckappa=        0.6                  cf=8.72587e-11 f/m     
      vfbflag=          0               vfbcv=         -1 V       
         tnom=     300.15 K               kt1=      -0.11 V       
         kt1l=          0                 kt2=      0.022         
          ute=       -1.5                 ua1=   4.31e-09 m/V     
          ub1=  -7.61e-18 (m/V)^2         uc1=   -5.6e-11 m/V^2   
           at=      33000 m/s             prt=          0         
          using Berkeley noise model       noiMod=          1         
         noia=    9.9e+18                noib=       2400         
         noic=    1.4e-12                  em=    4.1e+07         
           ef=          1                  af=          1         
           kf=          0              gdsnoi=-1.23457e-29         
          using Hspice diodes            using ACM 
          acm=         3                 hdif=     5e-07 meter    
         ldif=         0 meter             js=         0 amp/m^2  
          jsw=         0 amp/m            xti=         0          
            n=         1                   cj=0.000101851 f/m^2    
           mj=       0.5                   pb=       0.8 V        
         cjsw=         0 f/m             mjsw=      0.33          
          php=       0.8 V               pbsw (not used)           
       cjgate=         0 f/m            cjswg (not used)           
        mjswg (not used)                 pbswg (not used)           
  **info** (cmos_inverter.sp:8) DC voltage reset to initial transient source value in source 0:va. new dc=0.0000D+00
 

  
      
 **info** set option symb=1 internally to help for convergence.
 *****************************************************************
 ******  option summary
 ******
 runlvl  = 3         bypass  = 2.0000    
 ******
 invertercmos_barayeemtiazi

 ****** dc transfer curves tnom=  25.000 temp=  25.000 ******
x

 volt         voltage    voltage   
             a          out        
    0.          0.         3.3000  
   10.00000m   10.0000m    3.3000  
   20.00000m   20.0000m    3.3000  
   30.00000m   30.0000m    3.3000  
   40.00000m   40.0000m    3.3000  
   50.00000m   50.0000m    3.3000  
   60.00000m   60.0000m    3.3000  
   70.00000m   70.0000m    3.3000  
   80.00000m   80.0000m    3.3000  
   90.00000m   90.0000m    3.3000  
  100.00000m  100.0000m    3.3000  
  110.00000m  110.0000m    3.3000  
  120.00000m  120.0000m    3.3000  
  130.00000m  130.0000m    3.3000  
  140.00000m  140.0000m    3.3000  
  150.00000m  150.0000m    3.3000  
  160.00000m  160.0000m    3.3000  
  170.00000m  170.0000m    3.3000  
  180.00000m  180.0000m    3.3000  
  190.00000m  190.0000m    3.3000  
  200.00000m  200.0000m    3.3000  
  210.00000m  210.0000m    3.3000  
  220.00000m  220.0000m    3.3000  
  230.00000m  230.0000m    3.3000  
  240.00000m  240.0000m    3.3000  
  250.00000m  250.0000m    3.3000  
  260.00000m  260.0000m    3.3000  
  270.00000m  270.0000m    3.3000  
  280.00000m  280.0000m    3.3000  
  290.00000m  290.0000m    3.3000  
  300.00000m  300.0000m    3.3000  
  310.00000m  310.0000m    3.3000  
  320.00000m  320.0000m    3.3000  
  330.00000m  330.0000m    3.3000  
  340.00000m  340.0000m    3.3000  
  350.00000m  350.0000m    3.3000  
  360.00000m  360.0000m    3.3000  
  370.00000m  370.0000m    3.3000  
  380.00000m  380.0000m    3.2999  
  390.00000m  390.0000m    3.2999  
  400.00000m  400.0000m    3.2999  
  410.00000m  410.0000m    3.2999  
  420.00000m  420.0000m    3.2999  
  430.00000m  430.0000m    3.2998  
  440.00000m  440.0000m    3.2998  
  450.00000m  450.0000m    3.2997  
  460.00000m  460.0000m    3.2996  
  470.00000m  470.0000m    3.2995  
  480.00000m  480.0000m    3.2994  
  490.00000m  490.0000m    3.2993  
  500.00000m  500.0000m    3.2991  
  510.00000m  510.0000m    3.2988  
  520.00000m  520.0000m    3.2986  
  530.00000m  530.0000m    3.2982  
  540.00000m  540.0000m    3.2978  
  550.00000m  550.0000m    3.2972  
  560.00000m  560.0000m    3.2966  
  570.00000m  570.0000m    3.2958  
  580.00000m  580.0000m    3.2949  
  590.00000m  590.0000m    3.2939  
  600.00000m  600.0000m    3.2926  
  610.00000m  610.0000m    3.2911  
  620.00000m  620.0000m    3.2894  
  630.00000m  630.0000m    3.2875  
  640.00000m  640.0000m    3.2853  
  650.00000m  650.0000m    3.2829  
  660.00000m  660.0000m    3.2802  
  670.00000m  670.0000m    3.2772  
  680.00000m  680.0000m    3.2739  
  690.00000m  690.0000m    3.2703  
  700.00000m  700.0000m    3.2664  
  710.00000m  710.0000m    3.2622  
  720.00000m  720.0000m    3.2578  
  730.00000m  730.0000m    3.2530  
  740.00000m  740.0000m    3.2480  
  750.00000m  750.0000m    3.2427  
  760.00000m  760.0000m    3.2371  
  770.00000m  770.0000m    3.2312  
  780.00000m  780.0000m    3.2251  
  790.00000m  790.0000m    3.2187  
  800.00000m  800.0000m    3.2120  
  810.00000m  810.0000m    3.2051  
  820.00000m  820.0000m    3.1979  
  830.00000m  830.0000m    3.1904  
  840.00000m  840.0000m    3.1827  
  850.00000m  850.0000m    3.1747  
  860.00000m  860.0000m    3.1664  
  870.00000m  870.0000m    3.1578  
  880.00000m  880.0000m    3.1490  
  890.00000m  890.0000m    3.1398  
  900.00000m  900.0000m    3.1303  
  910.00000m  910.0000m    3.1206  
  920.00000m  920.0000m    3.1105  
  930.00000m  930.0000m    3.1001  
  940.00000m  940.0000m    3.0893  
  950.00000m  950.0000m    3.0782  
  960.00000m  960.0000m    3.0666  
  970.00000m  970.0000m    3.0547  
  980.00000m  980.0000m    3.0424  
  990.00000m  990.0000m    3.0296  
    1.00000     1.0000     3.0164  
    1.01000     1.0100     3.0027  
    1.02000     1.0200     2.9885  
    1.03000     1.0300     2.9737  
    1.04000     1.0400     2.9583  
    1.05000     1.0500     2.9423  
    1.06000     1.0600     2.9256  
    1.07000     1.0700     2.9082  
    1.08000     1.0800     2.8900  
    1.09000     1.0900     2.8709  
    1.10000     1.1000     2.8508  
    1.11000     1.1100     2.8297  
    1.12000     1.1200     2.8074  
    1.13000     1.1300     2.7837  
    1.14000     1.1400     2.7585  
    1.15000     1.1500     2.7315  
    1.16000     1.1600     2.7024  
    1.17000     1.1700     2.6709  
    1.18000     1.1800     2.6363  
    1.19000     1.1900     2.5978  
    1.20000     1.2000     2.5542  
    1.21000     1.2100     2.5034  
    1.22000     1.2200     2.4413  
    1.23000     1.2300     2.3584  
    1.24000     1.2400     2.2230  
    1.25000     1.2500     1.9384  
    1.26000     1.2600     1.4528  
    1.27000     1.2700   951.3844m 
    1.28000     1.2800   669.1773m 
    1.29000     1.2900   556.4419m 
    1.30000     1.3000   499.1888m 
    1.31000     1.3100   460.8612m 
    1.32000     1.3200   431.4776m 
    1.33000     1.3300   407.3452m 
    1.34000     1.3400   386.7133m 
    1.35000     1.3500   368.6091m 
    1.36000     1.3600   352.4313m 
    1.37000     1.3700   337.7799m 
    1.38000     1.3800   324.3734m 
    1.39000     1.3900   312.0056m 
    1.40000     1.4000   300.5200m 
    1.41000     1.4100   289.7950m 
    1.42000     1.4200   279.7335m 
    1.43000     1.4300   270.2572m 
    1.44000     1.4400   261.3014m 
    1.45000     1.4500   252.8120m 
    1.46000     1.4600   244.7436m 
    1.47000     1.4700   237.0572m 
    1.48000     1.4800   229.7193m 
    1.49000     1.4900   222.7010m 
    1.50000     1.5000   215.9769m 
    1.51000     1.5100   209.5246m 
    1.52000     1.5200   203.3245m 
    1.53000     1.5300   197.3588m 
    1.54000     1.5400   191.6120m 
    1.55000     1.5500   186.0699m 
    1.56000     1.5600   180.7198m 
    1.57000     1.5700   175.5503m 
    1.58000     1.5800   170.5508m 
    1.59000     1.5900   165.7119m 
    1.60000     1.6000   161.0248m 
    1.61000     1.6100   156.4816m 
    1.62000     1.6200   152.0750m 
    1.63000     1.6300   147.7982m 
    1.64000     1.6400   143.6450m 
    1.65000     1.6500   139.6097m 
    1.66000     1.6600   135.6869m 
    1.67000     1.6700   131.8716m 
    1.68000     1.6800   128.1593m 
    1.69000     1.6900   124.5456m 
    1.70000     1.7000   121.0265m 
    1.71000     1.7100   117.5984m 
    1.72000     1.7200   114.2576m 
    1.73000     1.7300   111.0009m 
    1.74000     1.7400   107.8252m 
    1.75000     1.7500   104.7275m 
    1.76000     1.7600   101.7053m 
    1.77000     1.7700    98.7558m 
    1.78000     1.7800    95.8767m 
    1.79000     1.7900    93.0657m 
    1.80000     1.8000    90.3206m 
    1.81000     1.8100    87.6393m 
    1.82000     1.8200    85.0200m 
    1.83000     1.8300    82.4608m 
    1.84000     1.8400    79.9599m 
    1.85000     1.8500    77.5158m 
    1.86000     1.8600    75.1268m 
    1.87000     1.8700    72.7914m 
    1.88000     1.8800    70.5083m 
    1.89000     1.8900    68.2761m 
    1.90000     1.9000    66.0936m 
    1.91000     1.9100    63.9594m 
    1.92000     1.9200    61.8725m 
    1.93000     1.9300    59.8317m 
    1.94000     1.9400    57.8360m 
    1.95000     1.9500    55.8843m 
    1.96000     1.9600    53.9758m 
    1.97000     1.9700    52.1095m 
    1.98000     1.9800    50.2845m 
    1.99000     1.9900    48.5000m 
    2.00000     2.0000    46.7551m 
    2.01000     2.0100    45.0492m 
    2.02000     2.0200    43.3814m 
    2.03000     2.0300    41.7511m 
